
T19F4 000:042 SEGGER J-Link V4.76d Log File (0000ms, 0040ms total)
T19F4 000:042 DLL Compiled: Sep 13 2013 16:35:06 (0000ms, 0040ms total)
T19F4 000:042 Logging started @ 2015-10-20 11:56 (0000ms, 0040ms total)
T19F4 000:042 JLINK_SetWarnOutHandler(...) (0000ms, 0040ms total)
T19F4 000:042 JLINK_OpenEx(...)
Firmware: J-Link V9 compiled Oct 28 2014 19:25:34
Hardware: V9.00
S/N: 59401559
Feature(s): RDI, GDB, FlashDL, FlashBP, JFlash  returns O.K. (0011ms, 0051ms total)
T19F4 000:053 JLINK_SetErrorOutHandler(...) (0000ms, 0051ms total)
T19F4 000:053 JLINK_ExecCommand("ProjectFile = "E:\job-32\BTJLY_Github\Code\Project\JLinkSettings.ini"", ...)  returns 0x00 (0000ms, 0051ms total)
T19F4 000:053 JLINK_ExecCommand("Device = STM32L152ZD", ...)
                JLINK_AddMirrorAreaEx(Addr = 0x00000000, Size = 0x00000000) (0001ms, 0001ms total)
              Device "STM32L152ZD" selected (388 KB flash, 48 KB RAM).  returns 0x00 (0001ms, 0052ms total)
T19F4 000:054 JLINK_ExecCommand("DisableConnectionTimeout", ...)  returns 0x01 (0000ms, 0052ms total)
T19F4 000:054 JLINK_GetHardwareVersion()  returns 0x15F90 (0000ms, 0052ms total)
T19F4 000:054 JLINK_GetDLLVersion()  returns 47604 (0000ms, 0052ms total)
T19F4 000:054 JLINK_GetFirmwareString(...) (0000ms, 0052ms total)
T19F4 000:054 JLINK_GetDLLVersion()  returns 47604 (0000ms, 0052ms total)
T19F4 000:054 JLINK_GetCompileDateTime() (0000ms, 0052ms total)
T19F4 000:054 JLINK_GetFirmwareString(...) (0000ms, 0052ms total)
T19F4 000:054 JLINK_GetHardwareVersion()  returns 0x15F90 (0000ms, 0052ms total)
T19F4 000:055 JLINK_TIF_Select(JLINKARM_TIF_SWD)  returns 0x00 (0001ms, 0053ms total)
T19F4 000:056 JLINK_SetSpeed(2000) (0001ms, 0054ms total)
T19F4 000:057 JLINK_GetId() >0x108 TIF>Found SWD-DP with ID 0x2BA01477 >0x0D TIF> >0x21 TIF> >0x0D TIF> >0x28 TIF> >0x0D TIF> >0x28 TIF> >0x0D TIF> >0x21 TIF> >0x0D TIF> >0x28 TIF> >0x0D TIF> >0x21 TIF> >0x0D TIF> >0x21 TIF> >0x0D TIF> >0x21 TIF> >0x0D TIF> >0x21 TIF> >0x0D TIF> >0x28 TIF> >0x0D TIF> >0x28 TIF> >0x0D TIF> >0x21 TIF> >0x0D TIF> >0x28 TIF> >0x0D TIF> >0x28 TIF> >0x0D TIF> >0x28 TIF> >0x0D TIF> >0x21 TIF> >0x0D TIF> >0x21 TIF> >0x0D TIF> >0x28 TIF> >0x0D TIF> >0x21 TIF> >0x0D TIF>
 >0x21 TIF>Found Cortex-M3 r2p0, Little endian. -- CPU_WriteMem(4 bytes @ 0xE0002000) -- CPU_ReadMem(4 bytes @ 0xE000EDF0) -- CPU_ReadMem(4 bytes @ 0xE0002000)FPUnit: 6 code (BP) slots and 2 literal slots -- CPU_ReadMem(4 bytes @ 0xE000EDFC) -- CPU_ReadMem(4 bytes @ 0xE0001000) -- CPU_WriteMem(4 bytes @ 0xE0001000) -- CPU_ReadMem(4 bytes @ 0xE00FF010)TPIU fitted. -- CPU_ReadMem(4 bytes @ 0xE00FF014)ETM fitted. -- CPU_ReadMem(4 bytes @ 0xE00FF018) >0x0D TIF> >0x21 TIF>  returns 0x2BA01477
 (0023ms, 0077ms total)
T19F4 000:080 JLINK_GetDeviceFamily()  returns 3 (0000ms, 0077ms total)
T19F4 000:080 JLINK_ReadMem (0xE00FFFF0, 0x0010 Bytes, ...) -- CPU is running -- CPU_ReadMem(16 bytes @ 0xE00FFFF0) -- Data:  0D 00 00 00 10 00 00 00 05 00 00 00 B1 00 00 00  returns 0x00 (0000ms, 0077ms total)
T19F4 000:080 JLINK_ReadMem (0xE00FFFD0, 0x0020 Bytes, ...) -- CPU is running -- CPU_ReadMem(32 bytes @ 0xE00FFFD0) -- Data:  00 00 00 00 00 00 00 00 00 00 00 00 00 00 00 00 ...  returns 0x00 (0001ms, 0078ms total)
T19F4 000:081 JLINK_ReadMem (0xE00FF000, 0x0018 Bytes, ...) -- CPU is running -- CPU_ReadMem(24 bytes @ 0xE00FF000) -- Data:  03 F0 F0 FF 03 20 F0 FF 03 30 F0 FF 03 10 F0 FF ...  returns 0x00 (0001ms, 0079ms total)
T19F4 000:082 JLINK_ReadMemU32(0xE000ED00, 0x0001 Items, ...) -- CPU is running -- CPU_ReadMem(4 bytes @ 0xE000ED00) -- Data:  30 C2 2F 41  returns 0x01 (0001ms, 0080ms total)
T19F4 000:083 JLINK_SetResetType(JLINKARM_RESET_TYPE_NORMAL)  returns JLINKARM_RESET_TYPE_NORMAL (0000ms, 0080ms total)
T19F4 000:083 JLINK_Reset() -- CPU is running -- CPU_WriteMem(4 bytes @ 0xE000EDF0) -- CPU is running -- CPU_WriteMem(4 bytes @ 0xE000EDFC) >0x35 TIF> -- CPU is running -- CPU_WriteMem(4 bytes @ 0xE000ED0C) -- CPU is running -- CPU_ReadMem(4 bytes @ 0xE000EDF0) -- CPU is running -- CPU_ReadMem(4 bytes @ 0xE000EDF0) -- CPU is running -- CPU_WriteMem(4 bytes @ 0xE000EDF0) -- CPU is running -- CPU_WriteMem(4 bytes @ 0xE000EDFC) -- CPU is running -- CPU_ReadMem(4 bytes @ 0xE000EDF0)
 -- CPU_WriteMem(4 bytes @ 0xE0002000) (0016ms, 0096ms total)
T19F4 000:099 JLINK_ReadReg(R15 (PC))  returns 0x08000138 (0000ms, 0096ms total)
T19F4 000:099 JLINK_ReadReg(XPSR)  returns 0x01000000 (0000ms, 0096ms total)
T19F4 000:099 JLINK_Halt()  returns 0x00 (0000ms, 0096ms total)
T19F4 000:099 JLINK_IsHalted()  returns TRUE (0000ms, 0096ms total)
T19F4 000:099 JLINK_ReadMemU32(0xE000EDF0, 0x0001 Items, ...) -- CPU_ReadMem(4 bytes @ 0xE000EDF0) -- Data:  03 00 03 00  returns 0x01 (0001ms, 0097ms total)
T19F4 000:100 JLINK_WriteU32(0xE000EDF0, 0xA05F0003) -- CPU_WriteMem(4 bytes @ 0xE000EDF0)  returns 0x00 (0001ms, 0098ms total)
T19F4 000:101 JLINK_WriteU32(0xE000EDFC, 0x01000000) -- CPU_WriteMem(4 bytes @ 0xE000EDFC)  returns 0x00 (0000ms, 0098ms total)
T19F4 000:102 JLINK_GetHWStatus(...)  returns 0x00 (0000ms, 0098ms total)
T19F4 000:102 JLINK_GetNumBPUnits(Type = 0xFFFFFF00)  returns 0x06 (0001ms, 0099ms total)
T19F4 000:103 JLINK_GetNumBPUnits(Type = 0xF0)  returns 0x2000 (0000ms, 0099ms total)
T19F4 000:103 JLINK_GetNumWPUnits()  returns 0x04 (0000ms, 0099ms total)
T19F4 000:103 JLINK_GetSpeed()  returns 0x7D0 (0000ms, 0099ms total)
T19F4 000:103 JLINK_ReadMemU32(0xE000E004, 0x0001 Items, ...) -- CPU_ReadMem(4 bytes @ 0xE000E004) -- Data:  01 00 00 00  returns 0x01 (0001ms, 0100ms total)
T19F4 000:104 JLINK_ReadMemU32(0xE000E004, 0x0001 Items, ...) -- CPU_ReadMem(4 bytes @ 0xE000E004) -- Data:  01 00 00 00  returns 0x01 (0000ms, 0100ms total)
T19F4 000:104 JLINK_WriteMem(0xE0001000, 0x001C Bytes, ...) -- Data:  01 00 00 00 00 00 00 00 00 00 00 00 00 00 00 00 ... -- CPU_WriteMem(28 bytes @ 0xE0001000)  returns 0x1C (0001ms, 0101ms total)
T19F4 000:105 JLINK_ReadMem (0xE0001000, 0x001C Bytes, ...) -- CPU_ReadMem(28 bytes @ 0xE0001000) -- Data:  01 00 00 40 00 00 00 00 00 00 00 00 00 00 00 00 ...  returns 0x00 (0001ms, 0102ms total)
T19F4 000:106 JLINK_ReadReg(R15 (PC))  returns 0x08000138 (0000ms, 0102ms total)
T19F4 000:106 JLINK_ReadReg(XPSR)  returns 0x01000000 (0000ms, 0102ms total)
T19F4 000:283 JLINK_SetResetType(JLINKARM_RESET_TYPE_NORMAL)  returns JLINKARM_RESET_TYPE_NORMAL (0000ms, 0102ms total)
T19F4 000:283 JLINK_Reset() -- CPU_WriteMem(4 bytes @ 0xE000EDF0) -- CPU_WriteMem(4 bytes @ 0xE000EDFC) >0x35 TIF> -- CPU_WriteMem(4 bytes @ 0xE000ED0C) -- CPU_ReadMem(4 bytes @ 0xE000EDF0) -- CPU_ReadMem(4 bytes @ 0xE000EDF0) -- CPU_WriteMem(4 bytes @ 0xE000EDF0) -- CPU_WriteMem(4 bytes @ 0xE000EDFC) -- CPU is running -- CPU_ReadMem(4 bytes @ 0xE000EDF0) -- CPU_WriteMem(4 bytes @ 0xE0002000) (0017ms, 0119ms total)
T19F4 000:300 JLINK_ReadReg(R15 (PC))  returns 0x08000138 (0000ms, 0119ms total)
T19F4 000:300 JLINK_ReadReg(XPSR)  returns 0x01000000 (0000ms, 0119ms total)
T19F4 000:301 JLINK_ReadMem (0x08000124, 0x003C Bytes, ...) -- CPU_ReadMem(60 bytes @ 0x08000124) -- Data:  DF F8 0C D0 00 F0 18 FC 00 48 00 47 21 8D 00 08 ...  returns 0x00 (0001ms, 0120ms total)
T19F4 000:456 JLINK_ReadMem (0x40020000, 0x0024 Bytes, ...) -- CPU_ReadMem(36 bytes @ 0x40020000) -- Data:  00 00 00 A8 00 00 00 A8 00 00 00 A8 00 00 00 A8 ...  returns 0x00 (0001ms, 0121ms total)
T19F4 000:457 JLINK_ReadMem (0x40020024, 0x0004 Bytes, ...) -- CPU_ReadMem(4 bytes @ 0x40020024) -- Data:  00 00 00 A8  returns 0x00 (0001ms, 0122ms total)
T19F4 000:458 JLINK_ReadMem (0x40020000, 0x0004 Bytes, ...) -- CPU_ReadMem(4 bytes @ 0x40020000) -- Data:  00 00 00 A8  returns 0x00 (0000ms, 0122ms total)
T19F4 000:458 JLINK_ReadMem (0x40020000, 0x0004 Bytes, ...) -- CPU_ReadMem(4 bytes @ 0x40020000) -- Data:  00 00 00 A8  returns 0x00 (0001ms, 0123ms total)
T19F4 000:459 JLINK_ReadMem (0x40020000, 0x0004 Bytes, ...) -- CPU_ReadMem(4 bytes @ 0x40020000) -- Data:  00 00 00 A8  returns 0x00 (0000ms, 0123ms total)
T19F4 000:459 JLINK_ReadMem (0x40020000, 0x0004 Bytes, ...) -- CPU_ReadMem(4 bytes @ 0x40020000) -- Data:  00 00 00 A8  returns 0x00 (0001ms, 0124ms total)
T19F4 000:460 JLINK_ReadMem (0x40020000, 0x0004 Bytes, ...) -- CPU_ReadMem(4 bytes @ 0x40020000) -- Data:  00 00 00 A8  returns 0x00 (0001ms, 0125ms total)
T19F4 000:461 JLINK_ReadMem (0x40020000, 0x0004 Bytes, ...) -- CPU_ReadMem(4 bytes @ 0x40020000) -- Data:  00 00 00 A8  returns 0x00 (0000ms, 0125ms total)
T19F4 000:461 JLINK_ReadMem (0x40020000, 0x0004 Bytes, ...) -- CPU_ReadMem(4 bytes @ 0x40020000) -- Data:  00 00 00 A8  returns 0x00 (0001ms, 0126ms total)
T19F4 000:462 JLINK_ReadMem (0x40020000, 0x0004 Bytes, ...) -- CPU_ReadMem(4 bytes @ 0x40020000) -- Data:  00 00 00 A8  returns 0x00 (0000ms, 0126ms total)
T19F4 000:463 JLINK_ReadMem (0x40020000, 0x0004 Bytes, ...) -- CPU_ReadMem(4 bytes @ 0x40020000) -- Data:  00 00 00 A8  returns 0x00 (0000ms, 0127ms total)
T19F4 000:463 JLINK_ReadMem (0x40020000, 0x0004 Bytes, ...) -- CPU_ReadMem(4 bytes @ 0x40020000) -- Data:  00 00 00 A8  returns 0x00 (0001ms, 0128ms total)
T19F4 000:464 JLINK_ReadMem (0x40020000, 0x0004 Bytes, ...) -- CPU_ReadMem(4 bytes @ 0x40020000) -- Data:  00 00 00 A8  returns 0x00 (0000ms, 0128ms total)
T19F4 000:464 JLINK_ReadMem (0x40020000, 0x0004 Bytes, ...) -- CPU_ReadMem(4 bytes @ 0x40020000) -- Data:  00 00 00 A8  returns 0x00 (0001ms, 0129ms total)
T19F4 000:465 JLINK_ReadMem (0x40020000, 0x0004 Bytes, ...) -- CPU_ReadMem(4 bytes @ 0x40020000) -- Data:  00 00 00 A8  returns 0x00 (0001ms, 0130ms total)
T19F4 000:466 JLINK_ReadMem (0x40020000, 0x0004 Bytes, ...) -- CPU_ReadMem(4 bytes @ 0x40020000) -- Data:  00 00 00 A8  returns 0x00 (0000ms, 0130ms total)
T19F4 000:466 JLINK_ReadMem (0x40020000, 0x0004 Bytes, ...) -- CPU_ReadMem(4 bytes @ 0x40020000) -- Data:  00 00 00 A8  returns 0x00 (0001ms, 0131ms total)
T19F4 000:467 JLINK_ReadMem (0x40020000, 0x0004 Bytes, ...) -- CPU_ReadMem(4 bytes @ 0x40020000) -- Data:  00 00 00 A8  returns 0x00 (0000ms, 0131ms total)
T19F4 000:468 JLINK_ReadMem (0x40020000, 0x0004 Bytes, ...) -- CPU_ReadMem(4 bytes @ 0x40020000) -- Data:  00 00 00 A8  returns 0x00 (0000ms, 0132ms total)
T19F4 000:468 JLINK_ReadMem (0x40020004, 0x0004 Bytes, ...) -- CPU_ReadMem(4 bytes @ 0x40020004) -- Data:  00 00 00 A8  returns 0x00 (0001ms, 0133ms total)
T19F4 000:469 JLINK_ReadMem (0x40020004, 0x0004 Bytes, ...) -- CPU_ReadMem(4 bytes @ 0x40020004) -- Data:  00 00 00 A8  returns 0x00 (0000ms, 0133ms total)
T19F4 000:469 JLINK_ReadMem (0x40020004, 0x0004 Bytes, ...) -- CPU_ReadMem(4 bytes @ 0x40020004) -- Data:  00 00 00 A8  returns 0x00 (0001ms, 0134ms total)
T19F4 000:470 JLINK_ReadMem (0x40020004, 0x0004 Bytes, ...) -- CPU_ReadMem(4 bytes @ 0x40020004) -- Data:  00 00 00 A8  returns 0x00 (0001ms, 0135ms total)
T19F4 000:471 JLINK_ReadMem (0x40020004, 0x0004 Bytes, ...) -- CPU_ReadMem(4 bytes @ 0x40020004) -- Data:  00 00 00 A8  returns 0x00 (0000ms, 0135ms total)
T19F4 000:471 JLINK_ReadMem (0x40020004, 0x0004 Bytes, ...) -- CPU_ReadMem(4 bytes @ 0x40020004) -- Data:  00 00 00 A8  returns 0x00 (0001ms, 0136ms total)
T19F4 000:472 JLINK_ReadMem (0x40020004, 0x0004 Bytes, ...) -- CPU_ReadMem(4 bytes @ 0x40020004) -- Data:  00 00 00 A8  returns 0x00 (0000ms, 0136ms total)
T19F4 000:473 JLINK_ReadMem (0x40020004, 0x0004 Bytes, ...) -- CPU_ReadMem(4 bytes @ 0x40020004) -- Data:  00 00 00 A8  returns 0x00 (0000ms, 0137ms total)
T19F4 000:473 JLINK_ReadMem (0x40020004, 0x0004 Bytes, ...) -- CPU_ReadMem(4 bytes @ 0x40020004) -- Data:  00 00 00 A8  returns 0x00 (0001ms, 0138ms total)
T19F4 000:474 JLINK_ReadMem (0x40020004, 0x0004 Bytes, ...) -- CPU_ReadMem(4 bytes @ 0x40020004) -- Data:  00 00 00 A8  returns 0x00 (0000ms, 0138ms total)
T19F4 000:475 JLINK_ReadMem (0x40020004, 0x0004 Bytes, ...) -- CPU_ReadMem(4 bytes @ 0x40020004) -- Data:  00 00 00 A8  returns 0x00 (0000ms, 0139ms total)
T19F4 000:475 JLINK_ReadMem (0x40020004, 0x0004 Bytes, ...) -- CPU_ReadMem(4 bytes @ 0x40020004) -- Data:  00 00 00 A8  returns 0x00 (0001ms, 0140ms total)
T19F4 000:476 JLINK_ReadMem (0x40020004, 0x0004 Bytes, ...) -- CPU_ReadMem(4 bytes @ 0x40020004) -- Data:  00 00 00 A8  returns 0x00 (0000ms, 0140ms total)
T19F4 000:476 JLINK_ReadMem (0x40020004, 0x0004 Bytes, ...) -- CPU_ReadMem(4 bytes @ 0x40020004) -- Data:  00 00 00 A8  returns 0x00 (0001ms, 0141ms total)
T19F4 000:477 JLINK_ReadMem (0x40020004, 0x0004 Bytes, ...) -- CPU_ReadMem(4 bytes @ 0x40020004) -- Data:  00 00 00 A8  returns 0x00 (0001ms, 0142ms total)
T19F4 000:478 JLINK_ReadMem (0x40020004, 0x0004 Bytes, ...) -- CPU_ReadMem(4 bytes @ 0x40020004) -- Data:  00 00 00 A8  returns 0x00 (0000ms, 0142ms total)
T19F4 000:478 JLINK_ReadMem (0x40020004, 0x0004 Bytes, ...) -- CPU_ReadMem(4 bytes @ 0x40020004) -- Data:  00 00 00 A8  returns 0x00 (0001ms, 0143ms total)
T19F4 000:479 JLINK_ReadMem (0x40020008, 0x0004 Bytes, ...) -- CPU_ReadMem(4 bytes @ 0x40020008) -- Data:  00 00 00 A8  returns 0x00 (0000ms, 0143ms total)
T19F4 000:480 JLINK_ReadMem (0x40020008, 0x0004 Bytes, ...) -- CPU_ReadMem(4 bytes @ 0x40020008) -- Data:  00 00 00 A8  returns 0x00 (0000ms, 0144ms total)
T19F4 000:480 JLINK_ReadMem (0x40020008, 0x0004 Bytes, ...) -- CPU_ReadMem(4 bytes @ 0x40020008) -- Data:  00 00 00 A8  returns 0x00 (0001ms, 0145ms total)
T19F4 000:481 JLINK_ReadMem (0x40020008, 0x0004 Bytes, ...) -- CPU_ReadMem(4 bytes @ 0x40020008) -- Data:  00 00 00 A8  returns 0x00 (0000ms, 0145ms total)
T19F4 000:481 JLINK_ReadMem (0x40020008, 0x0004 Bytes, ...) -- CPU_ReadMem(4 bytes @ 0x40020008) -- Data:  00 00 00 A8  returns 0x00 (0001ms, 0146ms total)
T19F4 000:482 JLINK_ReadMem (0x40020008, 0x0004 Bytes, ...) -- CPU_ReadMem(4 bytes @ 0x40020008) -- Data:  00 00 00 A8  returns 0x00 (0001ms, 0147ms total)
T19F4 000:483 JLINK_ReadMem (0x40020008, 0x0004 Bytes, ...) -- CPU_ReadMem(4 bytes @ 0x40020008) -- Data:  00 00 00 A8  returns 0x00 (0000ms, 0147ms total)
T19F4 000:483 JLINK_ReadMem (0x40020008, 0x0004 Bytes, ...) -- CPU_ReadMem(4 bytes @ 0x40020008) -- Data:  00 00 00 A8  returns 0x00 (0001ms, 0148ms total)
T19F4 000:484 JLINK_ReadMem (0x40020008, 0x0004 Bytes, ...) -- CPU_ReadMem(4 bytes @ 0x40020008) -- Data:  00 00 00 A8  returns 0x00 (0001ms, 0149ms total)
T19F4 000:485 JLINK_ReadMem (0x40020008, 0x0004 Bytes, ...) -- CPU_ReadMem(4 bytes @ 0x40020008) -- Data:  00 00 00 A8  returns 0x00 (0000ms, 0149ms total)
T19F4 000:485 JLINK_ReadMem (0x40020008, 0x0004 Bytes, ...) -- CPU_ReadMem(4 bytes @ 0x40020008) -- Data:  00 00 00 A8  returns 0x00 (0001ms, 0150ms total)
T19F4 000:486 JLINK_ReadMem (0x40020008, 0x0004 Bytes, ...) -- CPU_ReadMem(4 bytes @ 0x40020008) -- Data:  00 00 00 A8  returns 0x00 (0000ms, 0150ms total)
T19F4 000:486 JLINK_ReadMem (0x40020008, 0x0004 Bytes, ...) -- CPU_ReadMem(4 bytes @ 0x40020008) -- Data:  00 00 00 A8  returns 0x00 (0001ms, 0151ms total)
T19F4 000:487 JLINK_ReadMem (0x40020008, 0x0004 Bytes, ...) -- CPU_ReadMem(4 bytes @ 0x40020008) -- Data:  00 00 00 A8  returns 0x00 (0001ms, 0152ms total)
T19F4 000:488 JLINK_ReadMem (0x40020008, 0x0004 Bytes, ...) -- CPU_ReadMem(4 bytes @ 0x40020008) -- Data:  00 00 00 A8  returns 0x00 (0000ms, 0152ms total)
T19F4 000:488 JLINK_ReadMem (0x40020008, 0x0004 Bytes, ...) -- CPU_ReadMem(4 bytes @ 0x40020008) -- Data:  00 00 00 A8  returns 0x00 (0001ms, 0153ms total)
T19F4 000:489 JLINK_ReadMem (0x40020008, 0x0004 Bytes, ...) -- CPU_ReadMem(4 bytes @ 0x40020008) -- Data:  00 00 00 A8  returns 0x00 (0001ms, 0154ms total)
T19F4 000:490 JLINK_ReadMem (0x4002000C, 0x0004 Bytes, ...) -- CPU_ReadMem(4 bytes @ 0x4002000C) -- Data:  00 00 00 A8  returns 0x00 (0000ms, 0154ms total)
T19F4 000:490 JLINK_ReadMem (0x4002000C, 0x0004 Bytes, ...) -- CPU_ReadMem(4 bytes @ 0x4002000C) -- Data:  00 00 00 A8  returns 0x00 (0001ms, 0155ms total)
T19F4 000:491 JLINK_ReadMem (0x4002000C, 0x0004 Bytes, ...) -- CPU_ReadMem(4 bytes @ 0x4002000C) -- Data:  00 00 00 A8  returns 0x00 (0001ms, 0156ms total)
T19F4 000:492 JLINK_ReadMem (0x4002000C, 0x0004 Bytes, ...) -- CPU_ReadMem(4 bytes @ 0x4002000C) -- Data:  00 00 00 A8  returns 0x00 (0000ms, 0156ms total)
T19F4 000:492 JLINK_ReadMem (0x4002000C, 0x0004 Bytes, ...) -- CPU_ReadMem(4 bytes @ 0x4002000C) -- Data:  00 00 00 A8  returns 0x00 (0001ms, 0157ms total)
T19F4 000:493 JLINK_ReadMem (0x4002000C, 0x0004 Bytes, ...) -- CPU_ReadMem(4 bytes @ 0x4002000C) -- Data:  00 00 00 A8  returns 0x00 (0000ms, 0157ms total)
T19F4 000:493 JLINK_ReadMem (0x4002000C, 0x0004 Bytes, ...) -- CPU_ReadMem(4 bytes @ 0x4002000C) -- Data:  00 00 00 A8  returns 0x00 (0001ms, 0158ms total)
T19F4 000:494 JLINK_ReadMem (0x4002000C, 0x0004 Bytes, ...) -- CPU_ReadMem(4 bytes @ 0x4002000C) -- Data:  00 00 00 A8  returns 0x00 (0001ms, 0159ms total)
T19F4 000:495 JLINK_ReadMem (0x4002000C, 0x0004 Bytes, ...) -- CPU_ReadMem(4 bytes @ 0x4002000C) -- Data:  00 00 00 A8  returns 0x00 (0000ms, 0159ms total)
T19F4 000:495 JLINK_ReadMem (0x4002000C, 0x0004 Bytes, ...) -- CPU_ReadMem(4 bytes @ 0x4002000C) -- Data:  00 00 00 A8  returns 0x00 (0001ms, 0160ms total)
T19F4 000:496 JLINK_ReadMem (0x4002000C, 0x0004 Bytes, ...) -- CPU_ReadMem(4 bytes @ 0x4002000C) -- Data:  00 00 00 A8  returns 0x00 (0001ms, 0161ms total)
T19F4 000:497 JLINK_ReadMem (0x4002000C, 0x0004 Bytes, ...) -- CPU_ReadMem(4 bytes @ 0x4002000C) -- Data:  00 00 00 A8  returns 0x00 (0000ms, 0161ms total)
T19F4 000:497 JLINK_ReadMem (0x4002000C, 0x0004 Bytes, ...) -- CPU_ReadMem(4 bytes @ 0x4002000C) -- Data:  00 00 00 A8  returns 0x00 (0001ms, 0162ms total)
T19F4 000:498 JLINK_ReadMem (0x4002000C, 0x0004 Bytes, ...) -- CPU_ReadMem(4 bytes @ 0x4002000C) -- Data:  00 00 00 A8  returns 0x00 (0000ms, 0162ms total)
T19F4 000:498 JLINK_ReadMem (0x4002000C, 0x0004 Bytes, ...) -- CPU_ReadMem(4 bytes @ 0x4002000C) -- Data:  00 00 00 A8  returns 0x00 (0001ms, 0163ms total)
T19F4 000:499 JLINK_ReadMem (0x4002000C, 0x0004 Bytes, ...) -- CPU_ReadMem(4 bytes @ 0x4002000C) -- Data:  00 00 00 A8  returns 0x00 (0001ms, 0164ms total)
T19F4 000:500 JLINK_ReadMem (0x4002000C, 0x0004 Bytes, ...) -- CPU_ReadMem(4 bytes @ 0x4002000C) -- Data:  00 00 00 A8  returns 0x00 (0000ms, 0164ms total)
T19F4 000:500 JLINK_ReadMem (0x40020010, 0x0004 Bytes, ...) -- CPU_ReadMem(4 bytes @ 0x40020010) -- Data:  00 00 00 A8  returns 0x00 (0001ms, 0165ms total)
T19F4 000:501 JLINK_ReadMem (0x40020010, 0x0004 Bytes, ...) -- CPU_ReadMem(4 bytes @ 0x40020010) -- Data:  00 00 00 A8  returns 0x00 (0001ms, 0166ms total)
T19F4 000:502 JLINK_ReadMem (0x40020010, 0x0004 Bytes, ...) -- CPU_ReadMem(4 bytes @ 0x40020010) -- Data:  00 00 00 A8  returns 0x00 (0000ms, 0166ms total)
T19F4 000:502 JLINK_ReadMem (0x40020010, 0x0004 Bytes, ...) -- CPU_ReadMem(4 bytes @ 0x40020010) -- Data:  00 00 00 A8  returns 0x00 (0001ms, 0167ms total)
T19F4 000:503 JLINK_ReadMem (0x40020010, 0x0004 Bytes, ...) -- CPU_ReadMem(4 bytes @ 0x40020010) -- Data:  00 00 00 A8  returns 0x00 (0001ms, 0168ms total)
T19F4 000:504 JLINK_ReadMem (0x40020010, 0x0004 Bytes, ...) -- CPU_ReadMem(4 bytes @ 0x40020010) -- Data:  00 00 00 A8  returns 0x00 (0000ms, 0168ms total)
T19F4 000:504 JLINK_ReadMem (0x40020010, 0x0004 Bytes, ...) -- CPU_ReadMem(4 bytes @ 0x40020010) -- Data:  00 00 00 A8  returns 0x00 (0001ms, 0169ms total)
T19F4 000:505 JLINK_ReadMem (0x40020010, 0x0004 Bytes, ...) -- CPU_ReadMem(4 bytes @ 0x40020010) -- Data:  00 00 00 A8  returns 0x00 (0000ms, 0169ms total)
T19F4 000:505 JLINK_ReadMem (0x40020010, 0x0004 Bytes, ...) -- CPU_ReadMem(4 bytes @ 0x40020010) -- Data:  00 00 00 A8  returns 0x00 (0001ms, 0170ms total)
T19F4 000:506 JLINK_ReadMem (0x40020010, 0x0004 Bytes, ...) -- CPU_ReadMem(4 bytes @ 0x40020010) -- Data:  00 00 00 A8  returns 0x00 (0001ms, 0171ms total)
T19F4 000:507 JLINK_ReadMem (0x40020010, 0x0004 Bytes, ...) -- CPU_ReadMem(4 bytes @ 0x40020010) -- Data:  00 00 00 A8  returns 0x00 (0000ms, 0171ms total)
T19F4 000:507 JLINK_ReadMem (0x40020010, 0x0004 Bytes, ...) -- CPU_ReadMem(4 bytes @ 0x40020010) -- Data:  00 00 00 A8  returns 0x00 (0001ms, 0172ms total)
T19F4 000:508 JLINK_ReadMem (0x40020010, 0x0004 Bytes, ...) -- CPU_ReadMem(4 bytes @ 0x40020010) -- Data:  00 00 00 A8  returns 0x00 (0001ms, 0173ms total)
T19F4 000:509 JLINK_ReadMem (0x40020010, 0x0004 Bytes, ...) -- CPU_ReadMem(4 bytes @ 0x40020010) -- Data:  00 00 00 A8  returns 0x00 (0000ms, 0173ms total)
T19F4 000:509 JLINK_ReadMem (0x40020010, 0x0004 Bytes, ...) -- CPU_ReadMem(4 bytes @ 0x40020010) -- Data:  00 00 00 A8  returns 0x00 (0001ms, 0174ms total)
T19F4 000:510 JLINK_ReadMem (0x40020010, 0x0004 Bytes, ...) -- CPU_ReadMem(4 bytes @ 0x40020010) -- Data:  00 00 00 A8  returns 0x00 (0000ms, 0174ms total)
T19F4 000:510 JLINK_ReadMem (0x40020010, 0x0004 Bytes, ...) -- CPU_ReadMem(4 bytes @ 0x40020010) -- Data:  00 00 00 A8  returns 0x00 (0001ms, 0175ms total)
T19F4 000:511 JLINK_ReadMem (0x40020014, 0x0004 Bytes, ...) -- CPU_ReadMem(4 bytes @ 0x40020014) -- Data:  00 00 00 A8  returns 0x00 (0001ms, 0176ms total)
T19F4 000:512 JLINK_ReadMem (0x40020014, 0x0004 Bytes, ...) -- CPU_ReadMem(4 bytes @ 0x40020014) -- Data:  00 00 00 A8  returns 0x00 (0001ms, 0177ms total)
T19F4 000:513 JLINK_ReadMem (0x40020014, 0x0004 Bytes, ...) -- CPU_ReadMem(4 bytes @ 0x40020014) -- Data:  00 00 00 A8  returns 0x00 (0000ms, 0177ms total)
T19F4 000:513 JLINK_ReadMem (0x40020014, 0x0004 Bytes, ...) -- CPU_ReadMem(4 bytes @ 0x40020014) -- Data:  00 00 00 A8  returns 0x00 (0001ms, 0178ms total)
T19F4 000:514 JLINK_ReadMem (0x40020014, 0x0004 Bytes, ...) -- CPU_ReadMem(4 bytes @ 0x40020014) -- Data:  00 00 00 A8  returns 0x00 (0000ms, 0178ms total)
T19F4 000:514 JLINK_ReadMem (0x40020014, 0x0004 Bytes, ...) -- CPU_ReadMem(4 bytes @ 0x40020014) -- Data:  00 00 00 A8  returns 0x00 (0001ms, 0179ms total)
T19F4 000:515 JLINK_ReadMem (0x40020014, 0x0004 Bytes, ...) -- CPU_ReadMem(4 bytes @ 0x40020014) -- Data:  00 00 00 A8  returns 0x00 (0001ms, 0180ms total)
T19F4 000:516 JLINK_ReadMem (0x40020014, 0x0004 Bytes, ...) -- CPU_ReadMem(4 bytes @ 0x40020014) -- Data:  00 00 00 A8  returns 0x00 (0001ms, 0181ms total)
T19F4 000:517 JLINK_ReadMem (0x40020014, 0x0004 Bytes, ...) -- CPU_ReadMem(4 bytes @ 0x40020014) -- Data:  00 00 00 A8  returns 0x00 (0000ms, 0181ms total)
T19F4 000:517 JLINK_ReadMem (0x40020014, 0x0004 Bytes, ...) -- CPU_ReadMem(4 bytes @ 0x40020014) -- Data:  00 00 00 A8  returns 0x00 (0001ms, 0182ms total)
T19F4 000:518 JLINK_ReadMem (0x40020014, 0x0004 Bytes, ...) -- CPU_ReadMem(4 bytes @ 0x40020014) -- Data:  00 00 00 A8  returns 0x00 (0001ms, 0183ms total)
T19F4 000:519 JLINK_ReadMem (0x40020014, 0x0004 Bytes, ...) -- CPU_ReadMem(4 bytes @ 0x40020014) -- Data:  00 00 00 A8  returns 0x00 (0000ms, 0183ms total)
T19F4 000:519 JLINK_ReadMem (0x40020014, 0x0004 Bytes, ...) -- CPU_ReadMem(4 bytes @ 0x40020014) -- Data:  00 00 00 A8  returns 0x00 (0001ms, 0184ms total)
T19F4 000:520 JLINK_ReadMem (0x40020014, 0x0004 Bytes, ...) -- CPU_ReadMem(4 bytes @ 0x40020014) -- Data:  00 00 00 A8  returns 0x00 (0000ms, 0184ms total)
T19F4 000:520 JLINK_ReadMem (0x40020014, 0x0004 Bytes, ...) -- CPU_ReadMem(4 bytes @ 0x40020014) -- Data:  00 00 00 A8  returns 0x00 (0001ms, 0185ms total)
T19F4 000:521 JLINK_ReadMem (0x40020014, 0x0004 Bytes, ...) -- CPU_ReadMem(4 bytes @ 0x40020014) -- Data:  00 00 00 A8  returns 0x00 (0001ms, 0186ms total)
T19F4 000:522 JLINK_ReadMem (0x40020014, 0x0004 Bytes, ...) -- CPU_ReadMem(4 bytes @ 0x40020014) -- Data:  00 00 00 A8  returns 0x00 (0000ms, 0186ms total)
T19F4 000:522 JLINK_ReadMem (0x4002001C, 0x0004 Bytes, ...) -- CPU_ReadMem(4 bytes @ 0x4002001C) -- Data:  00 00 00 A8  returns 0x00 (0001ms, 0187ms total)
T19F4 000:523 JLINK_ReadMem (0x4002001C, 0x0004 Bytes, ...) -- CPU_ReadMem(4 bytes @ 0x4002001C) -- Data:  00 00 00 A8  returns 0x00 (0001ms, 0188ms total)
T19F4 000:524 JLINK_ReadMem (0x4002001C, 0x0004 Bytes, ...) -- CPU_ReadMem(4 bytes @ 0x4002001C) -- Data:  00 00 00 A8  returns 0x00 (0000ms, 0188ms total)
T19F4 000:524 JLINK_ReadMem (0x4002001C, 0x0004 Bytes, ...) -- CPU_ReadMem(4 bytes @ 0x4002001C) -- Data:  00 00 00 A8  returns 0x00 (0001ms, 0189ms total)
T19F4 000:525 JLINK_ReadMem (0x4002001C, 0x0004 Bytes, ...) -- CPU_ReadMem(4 bytes @ 0x4002001C) -- Data:  00 00 00 A8  returns 0x00 (0001ms, 0190ms total)
T19F4 000:526 JLINK_ReadMem (0x4002001C, 0x0004 Bytes, ...) -- CPU_ReadMem(4 bytes @ 0x4002001C) -- Data:  00 00 00 A8  returns 0x00 (0000ms, 0190ms total)
T19F4 000:526 JLINK_ReadMem (0x4002001C, 0x0004 Bytes, ...) -- CPU_ReadMem(4 bytes @ 0x4002001C) -- Data:  00 00 00 A8  returns 0x00 (0001ms, 0191ms total)
T19F4 000:527 JLINK_ReadMem (0x4002001C, 0x0004 Bytes, ...) -- CPU_ReadMem(4 bytes @ 0x4002001C) -- Data:  00 00 00 A8  returns 0x00 (0000ms, 0191ms total)
T19F4 000:528 JLINK_ReadMem (0x4002001C, 0x0004 Bytes, ...) -- CPU_ReadMem(4 bytes @ 0x4002001C) -- Data:  00 00 00 A8  returns 0x00 (0000ms, 0192ms total)
T19F4 000:528 JLINK_ReadMem (0x4002001C, 0x0004 Bytes, ...) -- CPU_ReadMem(4 bytes @ 0x4002001C) -- Data:  00 00 00 A8  returns 0x00 (0001ms, 0193ms total)
T19F4 000:529 JLINK_ReadMem (0x4002001C, 0x0004 Bytes, ...) -- CPU_ReadMem(4 bytes @ 0x4002001C) -- Data:  00 00 00 A8  returns 0x00 (0000ms, 0193ms total)
T19F4 000:529 JLINK_ReadMem (0x4002001C, 0x0004 Bytes, ...) -- CPU_ReadMem(4 bytes @ 0x4002001C) -- Data:  00 00 00 A8  returns 0x00 (0001ms, 0194ms total)
T19F4 000:530 JLINK_ReadMem (0x4002001C, 0x0004 Bytes, ...) -- CPU_ReadMem(4 bytes @ 0x4002001C) -- Data:  00 00 00 A8  returns 0x00 (0001ms, 0195ms total)
T19F4 000:531 JLINK_ReadMem (0x4002001C, 0x0004 Bytes, ...) -- CPU_ReadMem(4 bytes @ 0x4002001C) -- Data:  00 00 00 A8  returns 0x00 (0000ms, 0195ms total)
T19F4 000:531 JLINK_ReadMem (0x4002001C, 0x0004 Bytes, ...) -- CPU_ReadMem(4 bytes @ 0x4002001C) -- Data:  00 00 00 A8  returns 0x00 (0001ms, 0196ms total)
T19F4 000:532 JLINK_ReadMem (0x4002001C, 0x0004 Bytes, ...) -- CPU_ReadMem(4 bytes @ 0x4002001C) -- Data:  00 00 00 A8  returns 0x00 (0000ms, 0196ms total)
T19F4 000:533 JLINK_ReadMem (0x4002001C, 0x0004 Bytes, ...) -- CPU_ReadMem(4 bytes @ 0x4002001C) -- Data:  00 00 00 A8  returns 0x00 (0000ms, 0197ms total)
T19F4 000:533 JLINK_ReadMem (0x4002001C, 0x0004 Bytes, ...) -- CPU_ReadMem(4 bytes @ 0x4002001C) -- Data:  00 00 00 A8  returns 0x00 (0001ms, 0198ms total)
T19F4 000:534 JLINK_ReadMem (0x40020020, 0x0004 Bytes, ...) -- CPU_ReadMem(4 bytes @ 0x40020020) -- Data:  00 00 00 A8  returns 0x00 (0000ms, 0198ms total)
T19F4 000:534 JLINK_ReadMem (0x40020020, 0x0004 Bytes, ...) -- CPU_ReadMem(4 bytes @ 0x40020020) -- Data:  00 00 00 A8  returns 0x00 (0001ms, 0199ms total)
T19F4 000:535 JLINK_ReadMem (0x40020020, 0x0004 Bytes, ...) -- CPU_ReadMem(4 bytes @ 0x40020020) -- Data:  00 00 00 A8  returns 0x00 (0001ms, 0200ms total)
T19F4 000:536 JLINK_ReadMem (0x40020020, 0x0004 Bytes, ...) -- CPU_ReadMem(4 bytes @ 0x40020020) -- Data:  00 00 00 A8  returns 0x00 (0000ms, 0200ms total)
T19F4 000:536 JLINK_ReadMem (0x40020020, 0x0004 Bytes, ...) -- CPU_ReadMem(4 bytes @ 0x40020020) -- Data:  00 00 00 A8  returns 0x00 (0001ms, 0201ms total)
T19F4 000:537 JLINK_ReadMem (0x40020020, 0x0004 Bytes, ...) -- CPU_ReadMem(4 bytes @ 0x40020020) -- Data:  00 00 00 A8  returns 0x00 (0001ms, 0202ms total)
T19F4 000:538 JLINK_ReadMem (0x40020020, 0x0004 Bytes, ...) -- CPU_ReadMem(4 bytes @ 0x40020020) -- Data:  00 00 00 A8  returns 0x00 (0000ms, 0202ms total)
T19F4 000:538 JLINK_ReadMem (0x40020020, 0x0004 Bytes, ...) -- CPU_ReadMem(4 bytes @ 0x40020020) -- Data:  00 00 00 A8  returns 0x00 (0001ms, 0203ms total)
T19F4 000:539 JLINK_ReadMem (0x40020020, 0x0004 Bytes, ...) -- CPU_ReadMem(4 bytes @ 0x40020020) -- Data:  00 00 00 A8  returns 0x00 (0000ms, 0203ms total)
T19F4 000:540 JLINK_ReadMem (0x40020024, 0x0004 Bytes, ...) -- CPU_ReadMem(4 bytes @ 0x40020024) -- Data:  00 00 00 A8  returns 0x00 (0000ms, 0204ms total)
T19F4 000:540 JLINK_ReadMem (0x40020024, 0x0004 Bytes, ...) -- CPU_ReadMem(4 bytes @ 0x40020024) -- Data:  00 00 00 A8  returns 0x00 (0001ms, 0205ms total)
T19F4 000:541 JLINK_ReadMem (0x40020024, 0x0004 Bytes, ...) -- CPU_ReadMem(4 bytes @ 0x40020024) -- Data:  00 00 00 A8  returns 0x00 (0000ms, 0205ms total)
T19F4 000:541 JLINK_ReadMem (0x40020024, 0x0004 Bytes, ...) -- CPU_ReadMem(4 bytes @ 0x40020024) -- Data:  00 00 00 A8  returns 0x00 (0001ms, 0206ms total)
T19F4 000:542 JLINK_ReadMem (0x40020024, 0x0004 Bytes, ...) -- CPU_ReadMem(4 bytes @ 0x40020024) -- Data:  00 00 00 A8  returns 0x00 (0001ms, 0207ms total)
T19F4 000:543 JLINK_ReadMem (0x40020024, 0x0004 Bytes, ...) -- CPU_ReadMem(4 bytes @ 0x40020024) -- Data:  00 00 00 A8  returns 0x00 (0000ms, 0207ms total)
T19F4 000:543 JLINK_ReadMem (0x40020024, 0x0004 Bytes, ...) -- CPU_ReadMem(4 bytes @ 0x40020024) -- Data:  00 00 00 A8  returns 0x00 (0001ms, 0208ms total)
T19F4 000:544 JLINK_ReadMem (0x40020024, 0x0004 Bytes, ...) -- CPU_ReadMem(4 bytes @ 0x40020024) -- Data:  00 00 00 A8  returns 0x00 (0001ms, 0209ms total)
T19F4 000:545 JLINK_ReadMem (0x40020024, 0x0004 Bytes, ...) -- CPU_ReadMem(4 bytes @ 0x40020024) -- Data:  00 00 00 A8  returns 0x00 (0000ms, 0209ms total)
T19F4 000:575 JLINK_ReadMem (0x40021000, 0x0024 Bytes, ...) -- CPU_ReadMem(36 bytes @ 0x40021000) -- Data:  00 00 00 00 00 00 00 00 00 00 00 00 00 00 00 00 ...  returns 0x00 (0002ms, 0211ms total)
T19F4 000:577 JLINK_ReadMem (0x40021024, 0x0004 Bytes, ...) -- CPU_ReadMem(4 bytes @ 0x40021024) -- Data:  00 00 00 00  returns 0x00 (0000ms, 0211ms total)
T19F4 000:601 JLINK_ReadMem (0x40002400, 0x000C Bytes, ...) -- CPU_ReadMem(12 bytes @ 0x40002400) -- Data:  00 00 00 00 00 00 00 00 00 00 00 00  returns 0x00 (0001ms, 0212ms total)
T19F4 000:602 JLINK_ReadMem (0x4000240C, 0x0004 Bytes, ...) -- CPU_ReadMem(4 bytes @ 0x4000240C) -- Data:  00 00 00 00  returns 0x00 (0001ms, 0213ms total)
T19F4 000:603 JLINK_ReadMem (0x40002414, 0x003C Bytes, ...) -- CPU_ReadMem(60 bytes @ 0x40002414) -- Data:  00 00 00 00 00 00 00 00 00 00 00 00 00 00 00 00 ...  returns 0x00 (0001ms, 0214ms total)
T19F4 000:604 JLINK_ReadMem (0x40002450, 0x0004 Bytes, ...) -- CPU_ReadMem(4 bytes @ 0x40002450) -- Data:  00 00 00 00  returns 0x00 (0001ms, 0215ms total)
T19F4 000:628 JLINK_ReadMem (0x40013000, 0x0018 Bytes, ...) -- CPU_ReadMem(24 bytes @ 0x40013000) -- Data:  00 00 00 00 00 00 00 00 00 00 00 00 00 00 00 00 ...  returns 0x00 (0001ms, 0216ms total)
T19F4 000:629 JLINK_ReadMem (0x40013018, 0x0004 Bytes, ...) -- CPU_ReadMem(4 bytes @ 0x40013018) -- Data:  00 00 00 00  returns 0x00 (0001ms, 0217ms total)
T1518 002:051 JLINK_SetBPEx(Addr = 0x08008D20, Type = 0xFFFFFFF2)  returns 0x00000001 (0001ms, 0218ms total)
T1518 002:052 JLINK_SetBPEx(Addr = 0x08007112, Type = 0xFFFFFFF2)  returns 0x00000002 (0000ms, 0218ms total)
T1518 002:052 JLINK_Go() -- CPU_WriteMem(4 bytes @ 0xE0002000) -- CPU_WriteMem(4 bytes @ 0xE0002008) -- CPU_WriteMem(4 bytes @ 0xE0002000) -- CPU_WriteMem(4 bytes @ 0xE000200C) -- CPU_WriteMem(4 bytes @ 0xE0002010) -- CPU_WriteMem(4 bytes @ 0xE0002014) -- CPU_WriteMem(4 bytes @ 0xE0002018) -- CPU_WriteMem(4 bytes @ 0xE000201C) (0005ms, 0223ms total)
T1518 002:157 JLINK_IsHalted()  returns TRUE (0003ms, 0226ms total)
T1518 002:160 JLINK_Halt()  returns 0x00 (0000ms, 0223ms total)
T1518 002:160 JLINK_IsHalted()  returns TRUE (0000ms, 0223ms total)
T1518 002:160 JLINK_IsHalted()  returns TRUE (0000ms, 0223ms total)
T1518 002:160 JLINK_IsHalted()  returns TRUE (0000ms, 0223ms total)
T1518 002:160 JLINK_ReadReg(R15 (PC))  returns 0x08008D20 (0000ms, 0223ms total)
T1518 002:160 JLINK_ReadReg(XPSR)  returns 0x61000000 (0000ms, 0223ms total)
T1518 002:160 JLINK_ClrBPEx(BPHandle = 0x00000001)  returns 0x00 (0000ms, 0223ms total)
T1518 002:160 JLINK_ClrBPEx(BPHandle = 0x00000002)  returns 0x00 (0000ms, 0223ms total)
T1518 002:160 JLINK_ReadMemU32(0xE000ED30, 0x0001 Items, ...) -- CPU_ReadMem(4 bytes @ 0xE000ED30) -- Data:  03 00 00 00  returns 0x01 (0000ms, 0223ms total)
T1518 002:160 JLINK_ReadMemU32(0xE0001028, 0x0001 Items, ...) -- CPU_ReadMem(4 bytes @ 0xE0001028) -- Data:  00 00 00 00  returns 0x01 (0001ms, 0224ms total)
T1518 002:161 JLINK_ReadMemU32(0xE0001038, 0x0001 Items, ...) -- CPU_ReadMem(4 bytes @ 0xE0001038) -- Data:  00 02 00 00  returns 0x01 (0001ms, 0225ms total)
T1518 002:162 JLINK_ReadMemU32(0xE0001048, 0x0001 Items, ...) -- CPU_ReadMem(4 bytes @ 0xE0001048) -- Data:  00 00 00 00  returns 0x01 (0000ms, 0225ms total)
T1518 002:162 JLINK_ReadMemU32(0xE0001058, 0x0001 Items, ...) -- CPU_ReadMem(4 bytes @ 0xE0001058) -- Data:  00 00 00 00  returns 0x01 (0001ms, 0226ms total)
T1518 002:163 JLINK_ReadReg(R0)  returns 0x08008D21 (0000ms, 0226ms total)
T1518 002:163 JLINK_ReadReg(R1)  returns 0x20006428 (0000ms, 0226ms total)
T1518 002:163 JLINK_ReadReg(R2)  returns 0x00000000 (0000ms, 0226ms total)
T1518 002:163 JLINK_ReadReg(R3)  returns 0x080071AD (0000ms, 0226ms total)
T1518 002:163 JLINK_ReadReg(R4)  returns 0x080099A0 (0000ms, 0226ms total)
T1518 002:163 JLINK_ReadReg(R5)  returns 0x080099A0 (0000ms, 0226ms total)
T1518 002:163 JLINK_ReadReg(R6)  returns 0x00000000 (0000ms, 0226ms total)
T1518 002:163 JLINK_ReadReg(R7)  returns 0x00000000 (0000ms, 0226ms total)
T1518 002:163 JLINK_ReadReg(R8)  returns 0x00000000 (0000ms, 0226ms total)
T1518 002:163 JLINK_ReadReg(R9)  returns 0x00000000 (0000ms, 0226ms total)
T1518 002:163 JLINK_ReadReg(R10)  returns 0x00000000 (0001ms, 0227ms total)
T1518 002:164 JLINK_ReadReg(R11)  returns 0x00000000 (0000ms, 0227ms total)
T1518 002:164 JLINK_ReadReg(R12)  returns 0x00000000 (0000ms, 0227ms total)
T1518 002:164 JLINK_ReadReg(R13 (SP))  returns 0x20006428 (0000ms, 0227ms total)
T1518 002:164 JLINK_ReadReg(R14)  returns 0x08000979 (0000ms, 0227ms total)
T1518 002:164 JLINK_ReadReg(R15 (PC))  returns 0x08008D20 (0000ms, 0227ms total)
T1518 002:164 JLINK_ReadReg(XPSR)  returns 0x61000000 (0000ms, 0227ms total)
T1518 002:164 JLINK_ReadReg(MSP)  returns 0x20006428 (0000ms, 0227ms total)
T1518 002:164 JLINK_ReadReg(PSP)  returns 0x00000000 (0000ms, 0227ms total)
T1518 002:164 JLINK_ReadReg(CFBP)  returns 0x00000000 (0000ms, 0227ms total)
T19F4 002:165 JLINK_ReadMemU32(0xE0001004, 0x0001 Items, ...) -- CPU_ReadMem(4 bytes @ 0xE0001004) -- Data:  96 EA 00 00  returns 0x01 (0001ms, 0228ms total)
T19F4 002:167 JLINK_ReadMem (0x40021000, 0x0024 Bytes, ...) -- CPU_ReadMem(36 bytes @ 0x40021000) -- Data:  00 00 00 00 00 00 00 00 00 00 00 00 00 00 00 00 ...  returns 0x00 (0001ms, 0229ms total)
T19F4 002:168 JLINK_ReadMem (0x40021024, 0x0004 Bytes, ...) -- CPU_ReadMem(4 bytes @ 0x40021024) -- Data:  00 00 00 00  returns 0x00 (0001ms, 0230ms total)
T19F4 002:169 JLINK_ReadMem (0x40020000, 0x0024 Bytes, ...) -- CPU_ReadMem(36 bytes @ 0x40020000) -- Data:  00 00 00 A8 00 00 00 A8 00 00 00 A8 00 00 00 A8 ...  returns 0x00 (0001ms, 0231ms total)
T19F4 002:170 JLINK_ReadMem (0x40020024, 0x0004 Bytes, ...) -- CPU_ReadMem(4 bytes @ 0x40020024) -- Data:  00 00 00 A8  returns 0x00 (0001ms, 0232ms total)
T19F4 002:171 JLINK_ReadMem (0x40013000, 0x0018 Bytes, ...) -- CPU_ReadMem(24 bytes @ 0x40013000) -- Data:  00 00 00 00 00 00 00 00 00 00 00 00 00 00 00 00 ...  returns 0x00 (0001ms, 0233ms total)
T19F4 002:172 JLINK_ReadMem (0x40013018, 0x0004 Bytes, ...) -- CPU_ReadMem(4 bytes @ 0x40013018) -- Data:  00 00 00 00  returns 0x00 (0001ms, 0234ms total)
T19F4 002:173 JLINK_ReadMem (0x40002400, 0x000C Bytes, ...) -- CPU_ReadMem(12 bytes @ 0x40002400) -- Data:  00 00 00 00 00 00 00 00 00 00 00 00  returns 0x00 (0001ms, 0235ms total)
T19F4 002:174 JLINK_ReadMem (0x4000240C, 0x0004 Bytes, ...) -- CPU_ReadMem(4 bytes @ 0x4000240C) -- Data:  00 00 00 00  returns 0x00 (0001ms, 0236ms total)
T19F4 002:175 JLINK_ReadMem (0x40002414, 0x003C Bytes, ...) -- CPU_ReadMem(60 bytes @ 0x40002414) -- Data:  00 00 00 00 00 00 00 00 00 00 00 00 00 00 00 00 ...  returns 0x00 (0001ms, 0237ms total)
T19F4 002:176 JLINK_ReadMem (0x40002450, 0x0004 Bytes, ...) -- CPU_ReadMem(4 bytes @ 0x40002450) -- Data:  00 00 00 00  returns 0x00 (0001ms, 0238ms total)
T19F4 002:178 JLINK_ReadMem (0x08008C2C, 0x003C Bytes, ...) -- CPU_ReadMem(128 bytes @ 0x08008C00) -- Updating DA cache (128 bytes @ 0x08008C00) -- Read from DA cache (60 bytes @ 0x08008C2C) -- Data:  2D E9 F0 41 04 46 0E 46 17 46 4F F0 00 08 30 B2 ...  returns 0x00 (0001ms, 0239ms total)
T19F4 002:179 JLINK_ReadMem (0x08008C68, 0x003C Bytes, ...) -- CPU_ReadMem(64 bytes @ 0x08008C80) -- Updating DA cache (64 bytes @ 0x08008C80) -- Read from DA cache (60 bytes @ 0x08008C68) -- Data:  04 F8 01 0B 0B 48 10 F8 15 00 04 F8 01 0B 68 1C ...  returns 0x00 (0002ms, 0241ms total)
T19F4 002:181 JLINK_ReadMem (0x08008CA8, 0x003C Bytes, ...) -- CPU_ReadMem(64 bytes @ 0x08008CC0) -- Updating DA cache (64 bytes @ 0x08008CC0) -- Read from DA cache (60 bytes @ 0x08008CA8) -- Data:  70 B5 04 46 0D 46 E1 B2 05 48 FE F7 6A F8 00 BF ...  returns 0x00 (0001ms, 0242ms total)
T19F4 002:182 JLINK_ReadMem (0x08008CE4, 0x003C Bytes, ...) -- CPU_ReadMem(64 bytes @ 0x08008D00) -- Updating DA cache (64 bytes @ 0x08008D00) -- Read from DA cache (60 bytes @ 0x08008CE4) -- Data:  97 FC FF F7 07 FA 4F F4 80 52 03 48 01 88 03 48 ...  returns 0x00 (0001ms, 0243ms total)
T19F4 002:183 JLINK_ReadMem (0x08008D20, 0x003C Bytes, ...) -- CPU_ReadMem(64 bytes @ 0x08008D40) -- Updating DA cache (64 bytes @ 0x08008D40) -- Read from DA cache (60 bytes @ 0x08008D20) -- Data:  FC F7 DE FB FD F7 82 FB 10 A0 FE F7 15 FA FF F7 ...  returns 0x00 (0001ms, 0244ms total)
T1518 003:958 JLINK_SetBPEx(Addr = 0x08007112, Type = 0xFFFFFFF2)  returns 0x00000003 (0001ms, 0245ms total)
T1518 003:959 JLINK_Go() -- CPU_WriteMem(4 bytes @ 0xE0002000) -- CPU_WriteMem(4 bytes @ 0xE0002008) -- CPU_WriteMem(4 bytes @ 0xE000200C) (0003ms, 0248ms total)
T1518 004:062 JLINK_IsHalted()  returns FALSE (0000ms, 0248ms total)
T1518 004:162 JLINK_IsHalted()  returns FALSE (0000ms, 0248ms total)
T1518 004:262 JLINK_IsHalted()  returns FALSE (0000ms, 0248ms total)
T1518 004:362 JLINK_IsHalted()  returns FALSE (0000ms, 0248ms total)
T1518 004:462 JLINK_IsHalted()  returns FALSE (0000ms, 0248ms total)
T1518 004:562 JLINK_ReadMemU32(0xE0001004, 0x0001 Items, ...) -- CPU is running -- CPU_ReadMem(4 bytes @ 0xE0001004) -- Data:  73 F5 25 01  returns 0x01 (0000ms, 0248ms total)
T19F4 004:564 JLINK_ReadMem (0x40021000, 0x0024 Bytes, ...) -- CPU is running -- CPU_ReadMem(36 bytes @ 0x40021000) -- Data:  AA 05 3C A0 00 00 00 00 FF 0F 00 F0 00 00 00 50 ...  returns 0x00 (0001ms, 0249ms total)
T19F4 004:565 JLINK_ReadMem (0x40021024, 0x0004 Bytes, ...) -- CPU is running -- CPU_ReadMem(4 bytes @ 0x40021024) -- Data:  00 00 00 55  returns 0x00 (0001ms, 0250ms total)
T19F4 004:566 JLINK_ReadMem (0x40021000, 0x0004 Bytes, ...) -- CPU is running -- CPU_ReadMem(4 bytes @ 0x40021000) -- Data:  AA 05 3C A0  returns 0x00 (0001ms, 0251ms total)
T19F4 004:567 JLINK_ReadMem (0x40021000, 0x0004 Bytes, ...) -- CPU is running -- CPU_ReadMem(4 bytes @ 0x40021000) -- Data:  AA 05 3C A0  returns 0x00 (0001ms, 0252ms total)
T19F4 004:568 JLINK_ReadMem (0x40021000, 0x0004 Bytes, ...) -- CPU is running -- CPU_ReadMem(4 bytes @ 0x40021000) -- Data:  AA 05 3C A0  returns 0x00 (0001ms, 0253ms total)
T19F4 004:569 JLINK_ReadMem (0x40021000, 0x0004 Bytes, ...) -- CPU is running -- CPU_ReadMem(4 bytes @ 0x40021000) -- Data:  AA 05 3C A0  returns 0x00 (0001ms, 0254ms total)
T19F4 004:570 JLINK_ReadMem (0x40021000, 0x0004 Bytes, ...) -- CPU is running -- CPU_ReadMem(4 bytes @ 0x40021000) -- Data:  AA 05 3C A0  returns 0x00 (0001ms, 0255ms total)
T19F4 004:571 JLINK_ReadMem (0x40021000, 0x0004 Bytes, ...) -- CPU is running -- CPU_ReadMem(4 bytes @ 0x40021000) -- Data:  AA 05 3C A0  returns 0x00 (0000ms, 0255ms total)
T19F4 004:571 JLINK_ReadMem (0x40021000, 0x0004 Bytes, ...) -- CPU is running -- CPU_ReadMem(4 bytes @ 0x40021000) -- Data:  AA 05 3C A0  returns 0x00 (0001ms, 0256ms total)
T19F4 004:572 JLINK_ReadMem (0x40021000, 0x0004 Bytes, ...) -- CPU is running -- CPU_ReadMem(4 bytes @ 0x40021000) -- Data:  AA 05 3C A0  returns 0x00 (0001ms, 0257ms total)
T19F4 004:573 JLINK_ReadMem (0x40021000, 0x0004 Bytes, ...) -- CPU is running -- CPU_ReadMem(4 bytes @ 0x40021000) -- Data:  AA 05 3C A0  returns 0x00 (0001ms, 0258ms total)
T19F4 004:574 JLINK_ReadMem (0x40021000, 0x0004 Bytes, ...) -- CPU is running -- CPU_ReadMem(4 bytes @ 0x40021000) -- Data:  AA 05 3C A0  returns 0x00 (0000ms, 0258ms total)
T19F4 004:574 JLINK_ReadMem (0x40021000, 0x0004 Bytes, ...) -- CPU is running -- CPU_ReadMem(4 bytes @ 0x40021000) -- Data:  AA 05 3C A0  returns 0x00 (0001ms, 0259ms total)
T19F4 004:575 JLINK_ReadMem (0x40021000, 0x0004 Bytes, ...) -- CPU is running -- CPU_ReadMem(4 bytes @ 0x40021000) -- Data:  AA 05 3C A0  returns 0x00 (0001ms, 0260ms total)
T19F4 004:576 JLINK_ReadMem (0x40021000, 0x0004 Bytes, ...) -- CPU is running -- CPU_ReadMem(4 bytes @ 0x40021000) -- Data:  AA 05 3C A0  returns 0x00 (0001ms, 0261ms total)
T19F4 004:577 JLINK_ReadMem (0x40021000, 0x0004 Bytes, ...) -- CPU is running -- CPU_ReadMem(4 bytes @ 0x40021000) -- Data:  AA 05 3C A0  returns 0x00 (0000ms, 0261ms total)
T19F4 004:577 JLINK_ReadMem (0x40021000, 0x0004 Bytes, ...) -- CPU is running -- CPU_ReadMem(4 bytes @ 0x40021000) -- Data:  AA 05 3C A0  returns 0x00 (0001ms, 0262ms total)
T19F4 004:578 JLINK_ReadMem (0x40021000, 0x0004 Bytes, ...) -- CPU is running -- CPU_ReadMem(4 bytes @ 0x40021000) -- Data:  AA 05 3C A0  returns 0x00 (0001ms, 0263ms total)
T19F4 004:579 JLINK_ReadMem (0x40021000, 0x0004 Bytes, ...) -- CPU is running -- CPU_ReadMem(4 bytes @ 0x40021000) -- Data:  AA 05 3C A0  returns 0x00 (0001ms, 0264ms total)
T19F4 004:580 JLINK_ReadMem (0x40021008, 0x0004 Bytes, ...) -- CPU is running -- CPU_ReadMem(4 bytes @ 0x40021008) -- Data:  FF 0F 00 F0  returns 0x00 (0000ms, 0264ms total)
T19F4 004:580 JLINK_ReadMem (0x40021008, 0x0004 Bytes, ...) -- CPU is running -- CPU_ReadMem(4 bytes @ 0x40021008) -- Data:  FF 0F 00 F0  returns 0x00 (0001ms, 0265ms total)
T19F4 004:581 JLINK_ReadMem (0x40021008, 0x0004 Bytes, ...) -- CPU is running -- CPU_ReadMem(4 bytes @ 0x40021008) -- Data:  FF 0F 00 F0  returns 0x00 (0001ms, 0266ms total)
T19F4 004:582 JLINK_ReadMem (0x40021008, 0x0004 Bytes, ...) -- CPU is running -- CPU_ReadMem(4 bytes @ 0x40021008) -- Data:  FF 0F 00 F0  returns 0x00 (0001ms, 0267ms total)
T19F4 004:583 JLINK_ReadMem (0x40021008, 0x0004 Bytes, ...) -- CPU is running -- CPU_ReadMem(4 bytes @ 0x40021008) -- Data:  FF 0F 00 F0  returns 0x00 (0000ms, 0267ms total)
T19F4 004:583 JLINK_ReadMem (0x40021008, 0x0004 Bytes, ...) -- CPU is running -- CPU_ReadMem(4 bytes @ 0x40021008) -- Data:  FF 0F 00 F0  returns 0x00 (0001ms, 0268ms total)
T19F4 004:584 JLINK_ReadMem (0x40021008, 0x0004 Bytes, ...) -- CPU is running -- CPU_ReadMem(4 bytes @ 0x40021008) -- Data:  FF 0F 00 F0  returns 0x00 (0001ms, 0269ms total)
T19F4 004:585 JLINK_ReadMem (0x40021008, 0x0004 Bytes, ...) -- CPU is running -- CPU_ReadMem(4 bytes @ 0x40021008) -- Data:  FF 0F 00 F0  returns 0x00 (0000ms, 0269ms total)
T19F4 004:586 JLINK_ReadMem (0x40021008, 0x0004 Bytes, ...) -- CPU is running -- CPU_ReadMem(4 bytes @ 0x40021008) -- Data:  FF 0F 00 F0  returns 0x00 (0000ms, 0269ms total)
T19F4 004:586 JLINK_ReadMem (0x40021008, 0x0004 Bytes, ...) -- CPU is running -- CPU_ReadMem(4 bytes @ 0x40021008) -- Data:  FF 0F 00 F0  returns 0x00 (0001ms, 0270ms total)
T19F4 004:587 JLINK_ReadMem (0x40021008, 0x0004 Bytes, ...) -- CPU is running -- CPU_ReadMem(4 bytes @ 0x40021008) -- Data:  FF 0F 00 F0  returns 0x00 (0000ms, 0270ms total)
T19F4 004:588 JLINK_ReadMem (0x40021008, 0x0004 Bytes, ...) -- CPU is running -- CPU_ReadMem(4 bytes @ 0x40021008) -- Data:  FF 0F 00 F0  returns 0x00 (0000ms, 0270ms total)
T19F4 004:588 JLINK_ReadMem (0x40021008, 0x0004 Bytes, ...) -- CPU is running -- CPU_ReadMem(4 bytes @ 0x40021008) -- Data:  FF 0F 00 F0  returns 0x00 (0001ms, 0271ms total)
T19F4 004:589 JLINK_ReadMem (0x40021008, 0x0004 Bytes, ...) -- CPU is running -- CPU_ReadMem(4 bytes @ 0x40021008) -- Data:  FF 0F 00 F0  returns 0x00 (0000ms, 0271ms total)
T19F4 004:589 JLINK_ReadMem (0x40021008, 0x0004 Bytes, ...) -- CPU is running -- CPU_ReadMem(4 bytes @ 0x40021008) -- Data:  FF 0F 00 F0  returns 0x00 (0001ms, 0272ms total)
T19F4 004:590 JLINK_ReadMem (0x40021008, 0x0004 Bytes, ...) -- CPU is running -- CPU_ReadMem(4 bytes @ 0x40021008) -- Data:  FF 0F 00 F0  returns 0x00 (0001ms, 0273ms total)
T19F4 004:591 JLINK_ReadMem (0x40021008, 0x0004 Bytes, ...) -- CPU is running -- CPU_ReadMem(4 bytes @ 0x40021008) -- Data:  FF 0F 00 F0  returns 0x00 (0000ms, 0273ms total)
T19F4 004:591 JLINK_ReadMem (0x4002100C, 0x0004 Bytes, ...) -- CPU is running -- CPU_ReadMem(4 bytes @ 0x4002100C) -- Data:  00 00 00 50  returns 0x00 (0001ms, 0274ms total)
T19F4 004:592 JLINK_ReadMem (0x4002100C, 0x0004 Bytes, ...) -- CPU is running -- CPU_ReadMem(4 bytes @ 0x4002100C) -- Data:  00 00 00 50  returns 0x00 (0001ms, 0275ms total)
T19F4 004:593 JLINK_ReadMem (0x4002100C, 0x0004 Bytes, ...) -- CPU is running -- CPU_ReadMem(4 bytes @ 0x4002100C) -- Data:  00 00 00 50  returns 0x00 (0001ms, 0276ms total)
T19F4 004:594 JLINK_ReadMem (0x4002100C, 0x0004 Bytes, ...) -- CPU is running -- CPU_ReadMem(4 bytes @ 0x4002100C) -- Data:  00 00 00 50  returns 0x00 (0000ms, 0276ms total)
T19F4 004:594 JLINK_ReadMem (0x4002100C, 0x0004 Bytes, ...) -- CPU is running -- CPU_ReadMem(4 bytes @ 0x4002100C) -- Data:  00 00 00 50  returns 0x00 (0001ms, 0277ms total)
T19F4 004:595 JLINK_ReadMem (0x4002100C, 0x0004 Bytes, ...) -- CPU is running -- CPU_ReadMem(4 bytes @ 0x4002100C) -- Data:  00 00 00 50  returns 0x00 (0001ms, 0278ms total)
T19F4 004:596 JLINK_ReadMem (0x4002100C, 0x0004 Bytes, ...) -- CPU is running -- CPU_ReadMem(4 bytes @ 0x4002100C) -- Data:  00 00 00 50  returns 0x00 (0000ms, 0278ms total)
T19F4 004:597 JLINK_ReadMem (0x4002100C, 0x0004 Bytes, ...) -- CPU is running -- CPU_ReadMem(4 bytes @ 0x4002100C) -- Data:  00 00 00 50  returns 0x00 (0000ms, 0278ms total)
T19F4 004:597 JLINK_ReadMem (0x4002100C, 0x0004 Bytes, ...) -- CPU is running -- CPU_ReadMem(4 bytes @ 0x4002100C) -- Data:  00 00 00 50  returns 0x00 (0001ms, 0279ms total)
T19F4 004:598 JLINK_ReadMem (0x4002100C, 0x0004 Bytes, ...) -- CPU is running -- CPU_ReadMem(4 bytes @ 0x4002100C) -- Data:  00 00 00 50  returns 0x00 (0001ms, 0280ms total)
T19F4 004:599 JLINK_ReadMem (0x4002100C, 0x0004 Bytes, ...) -- CPU is running -- CPU_ReadMem(4 bytes @ 0x4002100C) -- Data:  00 00 00 50  returns 0x00 (0000ms, 0280ms total)
T19F4 004:599 JLINK_ReadMem (0x4002100C, 0x0004 Bytes, ...) -- CPU is running -- CPU_ReadMem(4 bytes @ 0x4002100C) -- Data:  00 00 00 50  returns 0x00 (0001ms, 0281ms total)
T19F4 004:600 JLINK_ReadMem (0x4002100C, 0x0004 Bytes, ...) -- CPU is running -- CPU_ReadMem(4 bytes @ 0x4002100C) -- Data:  00 00 00 50  returns 0x00 (0001ms, 0282ms total)
T19F4 004:601 JLINK_ReadMem (0x4002100C, 0x0004 Bytes, ...) -- CPU is running -- CPU_ReadMem(4 bytes @ 0x4002100C) -- Data:  00 00 00 50  returns 0x00 (0000ms, 0282ms total)
T19F4 004:602 JLINK_ReadMem (0x4002100C, 0x0004 Bytes, ...) -- CPU is running -- CPU_ReadMem(4 bytes @ 0x4002100C) -- Data:  00 00 00 50  returns 0x00 (0000ms, 0282ms total)
T19F4 004:602 JLINK_ReadMem (0x4002100C, 0x0004 Bytes, ...) -- CPU is running -- CPU_ReadMem(4 bytes @ 0x4002100C) -- Data:  00 00 00 50  returns 0x00 (0001ms, 0283ms total)
T19F4 004:603 JLINK_ReadMem (0x4002100C, 0x0004 Bytes, ...) -- CPU is running -- CPU_ReadMem(4 bytes @ 0x4002100C) -- Data:  00 00 00 50  returns 0x00 (0001ms, 0284ms total)
T19F4 004:604 JLINK_ReadMem (0x40021010, 0x0004 Bytes, ...) -- CPU is running -- CPU_ReadMem(4 bytes @ 0x40021010) -- Data:  20 40 00 00  returns 0x00 (0000ms, 0284ms total)
T19F4 004:604 JLINK_ReadMem (0x40021010, 0x0004 Bytes, ...) -- CPU is running -- CPU_ReadMem(4 bytes @ 0x40021010) -- Data:  20 40 00 00  returns 0x00 (0001ms, 0285ms total)
T19F4 004:605 JLINK_ReadMem (0x40021010, 0x0004 Bytes, ...) -- CPU is running -- CPU_ReadMem(4 bytes @ 0x40021010) -- Data:  20 40 00 00  returns 0x00 (0001ms, 0286ms total)
T19F4 004:606 JLINK_ReadMem (0x40021010, 0x0004 Bytes, ...) -- CPU is running -- CPU_ReadMem(4 bytes @ 0x40021010) -- Data:  20 40 00 00  returns 0x00 (0000ms, 0286ms total)
T19F4 004:606 JLINK_ReadMem (0x40021010, 0x0004 Bytes, ...) -- CPU is running -- CPU_ReadMem(4 bytes @ 0x40021010) -- Data:  20 40 00 00  returns 0x00 (0001ms, 0287ms total)
T19F4 004:607 JLINK_ReadMem (0x40021010, 0x0004 Bytes, ...) -- CPU is running -- CPU_ReadMem(4 bytes @ 0x40021010) -- Data:  20 40 00 00  returns 0x00 (0001ms, 0288ms total)
T19F4 004:608 JLINK_ReadMem (0x40021010, 0x0004 Bytes, ...) -- CPU is running -- CPU_ReadMem(4 bytes @ 0x40021010) -- Data:  20 40 00 00  returns 0x00 (0000ms, 0288ms total)
T19F4 004:609 JLINK_ReadMem (0x40021010, 0x0004 Bytes, ...) -- CPU is running -- CPU_ReadMem(4 bytes @ 0x40021010) -- Data:  20 40 00 00  returns 0x00 (0000ms, 0288ms total)
T19F4 004:609 JLINK_ReadMem (0x40021010, 0x0004 Bytes, ...) -- CPU is running -- CPU_ReadMem(4 bytes @ 0x40021010) -- Data:  20 40 00 00  returns 0x00 (0001ms, 0289ms total)
T19F4 004:610 JLINK_ReadMem (0x40021010, 0x0004 Bytes, ...) -- CPU is running -- CPU_ReadMem(4 bytes @ 0x40021010) -- Data:  20 40 00 00  returns 0x00 (0000ms, 0289ms total)
T19F4 004:611 JLINK_ReadMem (0x40021010, 0x0004 Bytes, ...) -- CPU is running -- CPU_ReadMem(4 bytes @ 0x40021010) -- Data:  20 40 00 00  returns 0x00 (0000ms, 0289ms total)
T19F4 004:611 JLINK_ReadMem (0x40021010, 0x0004 Bytes, ...) -- CPU is running -- CPU_ReadMem(4 bytes @ 0x40021010) -- Data:  20 40 00 00  returns 0x00 (0001ms, 0290ms total)
T19F4 004:612 JLINK_ReadMem (0x40021010, 0x0004 Bytes, ...) -- CPU is running -- CPU_ReadMem(4 bytes @ 0x40021010) -- Data:  20 40 00 00  returns 0x00 (0000ms, 0290ms total)
T19F4 004:612 JLINK_ReadMem (0x40021010, 0x0004 Bytes, ...) -- CPU is running -- CPU_ReadMem(4 bytes @ 0x40021010) -- Data:  20 40 00 00  returns 0x00 (0001ms, 0291ms total)
T19F4 004:613 JLINK_ReadMem (0x40021010, 0x0004 Bytes, ...) -- CPU is running -- CPU_ReadMem(4 bytes @ 0x40021010) -- Data:  20 40 00 00  returns 0x00 (0001ms, 0292ms total)
